#Digilent WaveForms Network Analyzer - Bode
#Device Name: Discovery2
#Serial Number: SN:210321B06064
#Date Time: 2025-05-27 16:01:43.737
#Start: 11.9 Hz
#Stop: 1.17e+06 Hz
#Steps: 1001
#Wavegen: Wavegen C1
#Amplification: 1 X
#Settle: 10 ms
#MinPeriods: 16 
#Channel: Channel 2
#Range: 5.47695 V
#Offset: -0.000223768 V
#Relative: yes
#Power Supplies: ON
#Positive Supply: ON
#Voltage: 5 V
#Negative Supply: ON
#Voltage: -5 V

Frequency (Hz),Channel 2 Magnitude (dB),Channel 2 Phase (deg)
11.90000000000002,-0.01279292745832741,-0.5103810376609275
12.03759147210506,-0.01292517040538761,-0.5155670489775872
12.1767738192686,-0.01261825183761423,-0.5218767255709622
12.31756543567896,-0.01320951537000835,-0.5290171139841675
12.45998492820377,-0.01289280825846487,-0.5351136359270612
12.604051118849,-0.01291078438831225,-0.5396145483750843
12.74978304724645,-0.01295405988170256,-0.5473370793787211
12.89719997317003,-0.01328369604540041,-0.5528188276449555
13.04632137908108,-0.01276099026630263,-0.5596594558843506
13.19716697270321,-0.01281814593626322,-0.5655673963441146
13.34975668962676,-0.01315114205282587,-0.5726213660103099
13.50411069594356,-0.01293113310213577,-0.578464382916053
13.66024939091199,-0.01285139513745068,-0.5851395056012301
13.81819340965297,-0.01301551049483124,-0.5927152226213934
13.97796362587703,-0.01285595591352853,-0.6001870448092745
14.13958115464301,-0.01302529702740074,-0.6065976816011229
14.30306735514857,-0.01320642750006746,-0.6141496411585052
14.46844383355297,-0.01293331903628035,-0.6201128996867737
14.63573244583261,-0.01275544352397847,-0.6271098069489511
14.80495530066939,-0.01283593430384517,-0.6352142597133437
14.97613476237262,-0.01253862229356483,-0.6416977065341598
15.14929345383467,-0.01262554792495255,-0.6488835775554378
15.32445425952075,-0.01291860836232439,-0.6576392868185224
15.50164032849335,-0.01287060307204663,-0.6645761773401659
15.68087507747153,-0.01284205596060907,-0.6731754878613003
15.86218219392569,-0.01300879421071438,-0.6808427483340083
16.0455856392081,-0.01301814812693522,-0.6884529434924787
16.23110965171955,-0.01279057146214292,-0.6949286220651629
16.41877875011273,-0.01267903905603244,-0.7030140356149719
16.60861773653248,-0.01282046943616668,-0.7108174195605557
16.80065169989378,-0.0131257536009503,-0.7201441692716912
16.99490601919734,-0.01271902913649276,-0.7290857496545726
17.19140636688375,-0.01270143599547625,-0.7361369666695055
17.39017871222623,-0.01279727003998233,-0.7449657360774609
17.59124932476279,-0.01295286371672682,-0.7546861655427062
17.79464477776791,-0.01296010044260789,-0.7629301918566398
18.0003919517645,-0.01292822950434047,-0.7734921728486484
18.20851803807636,-0.01264591826634856,-0.7803603096621003
18.41905054242175,-0.01324725527063883,-0.7900206082558725
18.63201728854856,-0.01286440443739354,-0.7993405867603798
18.84744642191141,-0.01282194873447239,-0.8090280540904615
19.06536641339139,-0.01254752437030494,-0.817694843276314
19.28580606305866,-0.01290417403093236,-0.8265234269526309
19.50879450397872,-0.01265085084058228,-0.8359566341378866
19.73436120606252,-0.0128270978862421,-0.8461366119485092
19.96253597996124,-0.01267274469944862,-0.8549558510427673
20.19334898100601,-0.01277268471213964,-0.8654212322014132
20.42683071319319,-0.01246605996512536,-0.8760193040106303
20.66301203321578,-0.01252195197377648,-0.8854289562491431
20.90192415454136,-0.01226473627055422,-0.8959324473067483
21.14359865153727,-0.01264818521666213,-0.9064865922803804
21.38806746364342,-0.0124739098712912,-0.9174887680760548
21.6353628995934,-0.01225436341036017,-0.9272730077662352
21.88551764168431,-0.01232726055563403,-0.938209079201954
22.1385647500961,-0.01221440495888164,-0.9487184269189104
22.39453766726068,-0.01225258003515235,-0.9607713263671656
22.65347022228171,-0.0122873801434707,-0.9711238692204844
22.91539663540537,-0.01195217553129474,-0.9824401390478386
23.18035152254288,-0.01223574857091238,-0.9943855456201902
23.44836989984527,-0.01213767986611373,-1.005662150626733
23.71948718833131,-0.01208621980450422,-1.016621516440505
23.99373921856817,-0.01194603962735336,-1.027381498173668
24.27116223540749,-0.01175974471864502,-1.03976943357172
24.55179290277473,-0.01186777256219121,-1.052408067845931
24.83566830851514,-0.01198781325430337,-1.06575919606793
25.12282596929507,-0.01180731825321994,-1.076174818206681
25.41330383556013,-0.01180170263771997,-1.08828106787931
25.70714029655067,-0.01184108938074716,-1.102020934907131
26.00437418537532,-0.0117022645128732,-1.113314318475993
26.30504478414306,-0.01156116964742758,-1.126247136919488
26.60919182915477,-0.01149649591205187,-1.140818255867956
26.91685551615468,-0.01153107312537162,-1.155046316249923
27.22807650564262,-0.01143062212287768,-1.166618041045311
27.54289592824767,-0.01143660137236585,-1.179829952426701
27.86135539016394,-0.01168598752919048,-1.194646233004789
28.18349697864918,-0.0112744473639069,-1.206568516116164
28.50936326758703,-0.01117304765348496,-1.221149166865629
28.83899732311348,-0.0110619190005628,-1.234151498059251
29.17244270930849,-0.01125918967985366,-1.249880214055167
29.50974349395335,-0.01109445627004903,-1.264487631086396
29.85094425435463,-0.01109005723522217,-1.278177917727216
30.1960900832355,-0.01073815633646249,-1.292587850335622
30.54522659469507,-0.01102969225741821,-1.309027532838935
30.89839993023676,-0.01077887045142521,-1.323779966830188
31.25565676486631,-0.01089032526343209,-1.338692056347853
31.61704431326025,-0.01069739971411307,-1.354364523709464
31.98261033600579,-0.01063607868412157,-1.370661984395156
32.35240314591277,-0.0105730790794318,-1.385436571266279
32.72647161439865,-0.01033540447886931,-1.401597833793353
33.10486517794731,-0.01026001531762965,-1.41801977389278
33.4876338446425,-0.01003921813874302,-1.43551638393232
33.87482820077687,-0.009976712107647827,-1.451263832491676
34.2664994175374,-0.009976152441199667,-1.467823000581205
34.66269925776812,-0.009659135965906418,-1.48294126695022
35.06348008281104,-0.009963654457378781,-1.501231098703641
35.46889485942615,-0.009472224501613684,-1.519338100355299
35.87899716679149,-0.009670469040811508,-1.536577984914189
36.29384120358405,-0.009538565438910395,-1.553627532728861
36.71348179514269,-0.009483085710168457,-1.572125731746752
37.13797440071374,-0.009319884629529394,-1.589414661632553
37.56737512078043,-0.009228420505153125,-1.60723834044413
38.00174070447711,-0.00910987728134733,-1.627354743893378
38.44112855708914,-0.009386311100492562,-1.646597097570265
38.88559674763949,-0.009249320202516842,-1.663981032818612
39.33520401656309,-0.00904685407570441,-1.683744247891312
39.79000978346991,-0.008763591363259628,-1.703985476801421
40.25007415499778,-0.008873117934422152,-1.722557772910093
40.71545793275604,-0.008454086727135886,-1.743653481619816
41.18622262136099,-0.008292894539347237,-1.763035953179156
41.66243043656428,-0.008275441805825193,-1.783252370782876
42.14414431347527,-0.007891137998916407,-1.805860074779758
42.63142791487851,-0.007955415343162919,-1.823709390809711
43.12434563964726,-0.007871158268902393,-1.846120992472422
43.62296263125447,-0.007805099762634072,-1.868207749649379
44.127344786382,-0.007661276833643158,-1.888473163322474
44.63755876362949,-0.007228633563452979,-1.911009993472668
45.15367199232387,-0.007108832479407037,-1.933257416540627
45.67575268143077,-0.007026006843373055,-1.954178861382691
46.20386982856891,-0.006608718170726263,-1.978612244237815
46.73809322912889,-0.006517261571454087,-2.001201535543856
47.27849348549685,-0.006680759256657513,-2.024871702802002
47.82514201638578,-0.006081798365132786,-2.047027769049919
48.37811106627378,-0.006321354763217433,-2.070585429927974
48.93747371495193,-0.006136874620559058,-2.09614122662515
49.50330388718235,-0.005932618149404782,-2.118998222479178
50.07567636246813,-0.005665064042255155,-2.143949137075907
50.654666784936,-0.005115406274992319,-2.168398066341901
51.24035167333346,-0.005053476556155421,-2.193732960533435
51.83280843114138,-0.004951538890253527,-2.220211824652495
52.43211535680351,-0.004895013107767287,-2.245986211979613
53.03835165407445,-0.004974568185383785,-2.272162830962287
53.65159744248697,-0.004478030853461754,-2.297592590830916
54.27193376794067,-0.003789272473665123,-2.323946715877725
54.89944261341279,-0.003643569202266135,-2.352047033314349
55.53420690979312,-0.003896168231276828,-2.376963686218858
56.17631054684392,-0.003202345945215152,-2.405391723778038
56.8258383842868,-0.003245940534900849,-2.43294534440426
57.48287626301767,-0.00267013150890056,-2.461531015568177
58.14751101645134,-0.002371389953681367,-2.489788470340741
58.81983048199737,-0.002177967705795327,-2.5182296690556
59.49992351266856,-0.001834621331948811,-2.548641135311172
60.18787998882365,-0.001605958013708474,-2.576653193509287
60.88379083004583,-0.001070799213562739,-2.605920435816472
61.58774800715857,-0.0006312412230775813,-2.638294969794018
62.29984455438036,-0.0005457363367931081,-2.667154259028202
63.02017458162008,-0.0002130795686187033,-2.697889401379001
63.74883328691436,-0.0002143507282376429,-2.730318403409882
64.48591696900894,7.252627675785438e-06,-2.761458143377628
65.23152304008538,0.0005863267607549524,-2.793044876349342
65.9857500386349,0.0008452363210309172,-2.825512665241249
66.74869764248123,0.001367369765247884,-2.859044087495249
67.52046668195379,0.001719636148684096,-2.890524784549086
68.30115915321342,0.002072783225385327,-2.924519001463334
69.09087823173203,0.002335293350359596,-2.958218189136659
69.88972828592819,0.002987950780087061,-2.99334744368392
70.69781489096032,0.003466581165230135,-3.02815089698592
71.51524484267941,0.003928564993292289,-3.061843377608369
72.342126171743,0.004054772889965202,-3.099707086289015
73.1785681578925,0.004580539518993326,-3.13487292769862
74.02468134439533,0.005038787883623209,-3.17038022845729
74.88057755265433,0.005439354574000322,-3.207322306329601
75.7463698969859,0.005965089069884552,-3.24556141223821
76.62217279956903,0.006363407811964482,-3.282517689847651
77.50810200556734,0.00698873835604719,-3.321173754544496
78.40427459842564,0.007998170350475094,-3.358674409275636
79.31080901534375,0.008143885285621245,-3.398064754328697
80.22782506292889,0.008577016648354481,-3.437622889617728
81.15544393302925,0.009432906999332673,-3.478010413175721
82.09378821875057,0.009595614849950283,-3.518115733666122
83.04298193065793,0.01034275946848328,-3.559513166837014
84.00315051316481,0.01094314432053677,-3.600825594893948
84.9744208611117,0.01143259266680023,-3.642893981130129
85.95692133653638,0.01181362568244018,-3.684955978142437
86.95078178563818,0.01253047377260306,-3.727482577190884
87.95613355593822,0.01327212950775822,-3.770681581076815
88.97310951363835,0.01372160605734984,-3.815015375161764
90.00184406117972,0.01443390628259535,-3.858853528611078
91.04247315500734,0.01556431337229708,-3.903650610183746
92.09513432353499,0.01593471758394322,-3.947940564781689
93.15996668532401,0.0169329465769428,-3.994938413108503
94.23711096746588,0.01754824756305016,-4.043037658727719
95.32670952418371,0.01830184322969017,-4.088210226770002
96.42890635564254,0.01900740614135541,-4.137870824356881
97.54384712698327,0.01981534096254085,-4.185750699361336
98.67167918757053,0.0205558853136385,-4.233078366712348
99.81255159046943,0.02147173702518903,-4.282612702511699
100.9666151121409,0.02232144953866881,-4.332581015862871
102.1340222723716,0.02297519622645761,-4.384319038686932
103.3149273544273,0.02384552964786515,-4.434710485481972
104.5094864254461,0.02493087331192038,-4.486108914745266
105.717857357061,0.02556535835429426,-4.537733566730665
106.940199846267,0.02678387300966095,-4.592564097861512
108.1766754365235,0.02794033714724044,-4.644361466136985
109.427447539107,0.02866508161221038,-4.699992252802744
110.6926814547037,0.03011746778568358,-4.755213771304298
111.9725443952591,0.0311217077343854,-4.810104922527842
113.2672055060733,0.03227723193213915,-4.8660738555511
114.576835888158,0.03306586209821988,-4.923217268911102
115.9016086208459,0.03400682077866361,-4.981232673222735
117.2416987846684,0.03508939538651332,-5.038568918677271
118.59728348449,0.0363102722366053,-5.098569994904381
119.9685418729179,0.03771853844418068,-5.158366777496042
121.3556551739758,0.03908441912273971,-5.217670935815008
122.7588067070565,0.0399328787884531,-5.281090780015852
124.1781819111474,0.04160992095539622,-5.341828835299452
125.6139683693392,0.04280933957275749,-5.403851628404794
127.066355833616,0.04431024343262435,-5.468481543833278
128.5355362499328,0.04567805657648586,-5.532808992561428
130.0217037835832,0.04685602829786494,-5.597046828507658
131.5250548448596,0.04855383902324002,-5.664056786396626
133.0457881150109,0.05031136024631082,-5.728674004048599
134.5841045725,0.05125043908099917,-5.796606496838109
136.1402075195647,0.05326448459546433,-5.864144329350623
137.7143026090859,0.05512223456124743,-5.935029025064054
139.3065978717669,0.05657316600971253,-6.004118101238419
140.9173037436259,0.05821581689488432,-6.075278631168842
142.5466330938073,0.06014614992261594,-6.147749743397554
144.1948012527144,0.06161221613758004,-6.218057397408955
145.862026040467,0.06376984800797415,-6.291832816256488
147.5485277956881,0.06537301549418056,-6.367036953149036
149.2545294046243,0.06744687586047057,-6.441538143550048
150.9802563306014,0.06914337620840978,-6.519294435484781
152.7259366438219,0.07143003646907495,-6.594724665038115
154.4918010515066,0.07318883609462531,-6.672449670174856
156.2780829283836,0.07513143111511379,-6.752960326220602
158.0850183475323,0.07739240535924158,-6.831583025990284
159.9128461115819,0.07955569699541681,-6.91259166382514
161.761807784271,0.08163908498508426,-6.997206820816274
163.6321477223727,0.08394419518132618,-7.078547566267959
165.5241131079888,0.08648477218357237,-7.162093088484319
167.4379539812165,0.08890912612166324,-7.248667440151848
169.373923273194,0.09092021807447354,-7.335440407497908
171.3322768395273,0.09362279425552605,-7.422846737173487
173.3132734941037,0.09635993985018559,-7.511051569730711
175.3171750432967,0.0988677804478795,-7.600688561733818
177.344246320566,0.101487519985973,-7.691061959266541
179.3947552214574,0.104298252702212,-7.782588296327958
181.4689727390073,0.1071315134027317,-7.875668635294346
183.5671729995577,0.1102545878777151,-7.969651878163688
185.6896332989838,0.1131019133486776,-8.066373880962146
187.8366341393412,0.1159010418460158,-8.163182256807659
190.0084592659368,0.1188524825055422,-8.260134932324412
192.2053957048286,0.1221840137445178,-8.359236783782233
194.4277338007579,0.1252376603879359,-8.458856482152868
196.6757672555221,0.1285899105929022,-8.561356245978544
198.949793166789,0.1317725446044549,-8.666994293410065
201.2501120673615,0.1353214035801053,-8.769248683289135
203.5770279648954,0.1391106052011805,-8.876258377098054
205.9308483820769,0.142644951332782,-8.982453834642428
208.3118843972643,0.1463510233207141,-9.090474516301953
210.7204506856,0.1499145184104844,-9.202024548952366
213.1568655605977,0.1536649863721343,-9.31284781411193
215.6214510162094,0.1574136976098789,-9.427046016305496
218.1145327693814,0.1618163259403713,-9.540958680949757
220.6364403030993,0.1657877094489882,-9.655679842166109
223.1875069099329,0.1701637457710244,-9.774826801838977
225.7680697360835,0.1745494432573266,-9.892864329222931
228.3784698259408,0.1791830487346156,-10.01440483615889
231.0190521671549,0.1836857947171655,-10.13672175924304
233.6901657362298,0.1883724403956861,-10.25989151067902
236.3921635446432,0.193237333773172,-10.38557450725081
239.1254026855007,0.1976958946667507,-10.51439559251592
241.8902443807283,0.2029201625766965,-10.64342864149534
244.6870540288118,0.2078475582796727,-10.7726422340815
247.5162012530866,0.2131207519782799,-10.90612540276646
250.3780599505875,0.2185401917513712,-11.04005508650001
253.2730083414619,0.2237173121546354,-11.17745389202827
256.2014290189557,0.2294621879305743,-11.31553941878633
259.1637089999753,0.2352161315336613,-11.45738238994921
262.1602397762366,0.2408055821082689,-11.59930202181195
265.1914173660033,0.2469707309636398,-11.74371088373992
268.2576423664244,0.2531057970438,-11.8885418040374
271.3593200064769,0.2593960857570361,-12.03852910082841
274.4968602005202,0.2658865761362335,-12.18694475437559
277.6706776024699,0.2723470455081606,-12.34117814007838
280.8811916605984,0.2788944738258273,-12.49506166758655
284.1288266729682,0.2855712274376964,-12.65288203758269
287.4140118435071,0.2928392319595474,-12.81265166111539
290.7371813387313,0.2996316408469979,-12.97519599875454
294.0987743451234,0.307281981817823,-13.13881447426922
297.4992351271768,0.3144129102035045,-13.30566098275425
300.9390130861073,0.3222920102771976,-13.47510827977811
304.4185628192465,0.3300900591673419,-13.64650808331072
307.9383441801199,0.3379567619373822,-13.81854531928657
311.4988223392241,0.3461787500842548,-13.99733373504623
315.1004678454962,0.3544373878237,-14.17541599309055
318.7437566885091,0.3631629617232869,-14.35694040088765
322.4291703613712,0.3715353265928044,-14.54352186507444
326.1571959243656,0.3808064472850548,-14.73153390418838
329.9283260693138,0.3896480091855832,-14.92251310444848
333.7430591846947,0.3989535278746131,-15.11486429990698
337.6018994215064,0.4083757627561651,-15.31255152528297
341.5053567598986,0.4179734531727359,-15.51251122036696
345.4539470765666,0.4277917726773088,-15.71600799349181
349.4481922129336,0.4382934599251028,-15.91848605523758
353.4886200441117,0.4481179992833465,-16.13109865154088
357.5757645486708,0.4587508274089349,-16.3441000410826
361.710165879203,0.4697731086512595,-16.55728258144181
365.8923704337142,0.4807780289103317,-16.77999166805577
370.1229309278298,0.4919127293248213,-17.00285688341963
374.4024064678464,0.5035553429559194,-17.22838359767801
378.7313626246176,0.5156224199332278,-17.45908120829503
383.1103715083046,0.527887316217627,-17.69436192753815
387.5400118439796,0.5396415756410893,-17.93238075289622
392.0208690481161,0.55202368200749,-18.1777568695268
396.55353530595,0.5653073699902245,-18.42393620937528
401.1386096497496,0.5782441126865683,-18.67342112737724
405.7766980379739,0.5916650911787621,-18.92735106808297
410.4684134353671,0.6056004813254494,-19.18741182643745
415.214375893954,0.6195020885683369,-19.45222760044894
420.015212634999,0.6335618422573506,-19.72048977233204
424.8715581318857,0.6483495006209563,-19.9929397323817
429.7840541939815,0.662883941472006,-20.2722594622415
434.7533500514453,0.6779749785481144,-20.5548459156214
439.7801024410405,0.6930529860131132,-20.84406640671169
444.8649756929199,0.7087980168598573,-21.13896810380761
450.0086418184299,0.7249505107893408,-21.43895908736111
455.2117805989158,0.7412426713871716,-21.74323703212256
460.4750796755686,0.7578357115492568,-22.05291675421397
465.799234640295,0.7752929138480079,-22.37037744002549
471.1849491276535,0.7921789962232019,-22.69227389086376
476.6329349078391,0.8096129286953013,-23.0204908967882
482.143911980757,0.8276965499463453,-23.35635545200824
487.7186086711696,0.8459129847527889,-23.69467807163551
493.3577617249592,0.8650048592602242,-24.04503798610653
499.062116406487,0.8835429397886225,-24.40099358909312
504.8324265970948,0.9028452444224472,-24.76055092012041
510.6694548947292,0.9228068622270819,-25.12994683457305
516.5739727147336,0.9428939662888911,-25.50605086558464
522.5467603917895,0.9634655360313527,-25.89112722723611
528.5886072830527,0.9835050851582745,-26.28143488798844
534.7003118724665,1.004673636567271,-26.6823911117022
540.8826818762956,1.02630079421071,-27.08799131620838
547.136534349865,1.048106313295954,-27.50676275232559
553.462695795551,1.070223697868778,-27.93362353413789
559.8620022719982,1.092661283356504,-28.36761796476423
566.3352995046281,1.115454859492221,-28.81222779602427
572.8834429973911,1.138344620915448,-29.26625069554674
579.5072981458474,1.161924941898165,-29.72960089735621
586.2077403515187,1.185862104718743,-30.19923217649288
592.9856551375987,1.209954958325946,-30.685007333871
